
T6388 000:303 SEGGER J-Link V4.54a Log File (0000ms, 0303ms total)
T6388 000:303 DLL Compiled: Sep 17 2012 15:58:45 (0000ms, 0303ms total)
T6388 000:303 Logging started @ 2019-08-28 14:21 (0000ms, 0303ms total)
T6388 000:303 JLINK_SetWarnOutHandler(...) (0000ms, 0303ms total)
T6388 000:303 JLINK_OpenEx(...)
Firmware: J-Link V9 compiled Jul 19 2017 16:11:45
Hardware: V9.40
S/N: 59408424
Feature(s): RDI, GDB, FlashDL, FlashBP, JFlash  returns O.K. (0013ms, 0316ms total)
T6388 000:316 JLINK_SetErrorOutHandler(...) (0000ms, 0316ms total)
T6388 000:316 JLINK_ExecCommand("ProjectFile = "D:\MyProject\Alen\BS45i V1.5 ES506\JLinkSettings.ini"", ...)
                JLINK_AddMirrorAreaEx(Addr = 0x00000000, Size = 0x00000000) (0000ms, 0000ms total)
              Device "UNSPECIFIED" selected (0 KB flash, 0 KB RAM).  returns 0x00 (0008ms, 0324ms total)
T6388 000:328 JLINK_ExecCommand("Device = HR8P506FHLQ", ...)
                JLINK_AddMirrorAreaEx(Addr = 0x00000000, Size = 0x00000000) (0000ms, 0000ms total)
              Device "UNSPECIFIED" selected (0 KB flash, 0 KB RAM).  returns 0x00 (0004ms, 0328ms total)
T6388 000:332 JLINK_ExecCommand("DisableConnectionTimeout", ...)  returns 0x00 (0000ms, 0328ms total)
T6388 000:332 JLINK_TIF_Select(JLINKARM_TIF_SWD)  returns 0x00 (0001ms, 0329ms total)
T6388 000:333 JLINK_SetSpeed(2000) (0000ms, 0329ms total)
T6388 000:333 JLINK_GetHardwareVersion()  returns 0x16F30 (0000ms, 0329ms total)
T6388 000:333 JLINK_GetDLLVersion()  returns 45401 (0000ms, 0329ms total)
T6388 000:333 JLINK_GetFirmwareString(...) (0000ms, 0329ms total)
T6388 000:352 JLINK_GetDLLVersion()  returns 45401 (0000ms, 0329ms total)
T6388 000:352 JLINK_GetCompileDateTime() (0000ms, 0329ms total)
T6388 000:362 JLINK_GetFirmwareString(...) (0000ms, 0329ms total)
T6388 000:375 JLINK_GetHardwareVersion()  returns 0x16F30 (0000ms, 0329ms total)
T6388 000:397 JLINK_GetId() >0x108 TIF>Found SWD-DP with ID 0x0BB11477 >0x0D TIF> >0x21 TIF> >0x0D TIF> >0x28 TIF> >0x0D TIF> >0x28 TIF> >0x0D TIF> >0x21 TIF> >0x0D TIF> >0x21 TIF> >0x0D TIF> >0x28 TIF> >0x0D TIF> >0x21 TIF> >0x0D TIF> >0x21 TIF> >0x0D TIF> >0x21 TIF> >0x0D TIF> >0x21 TIF> >0x0D TIF> >0x21 TIF> >0x0D TIF> >0x28 TIF> >0x0D TIF> >0x28 TIF> >0x0D TIF> >0x21 TIF> >0x0D TIF> >0x21 TIF> >0x0D TIF> >0x28 TIF> >0x0D TIF> >0x21 TIF> >0x0D TIF> >0x21 TIF> >0x0D TIF> >0x28 TIF> >0x0D TIF>
 >0x28 TIF> >0x0D TIF> >0x28 TIF> >0x0D TIF> >0x21 TIF> >0x0D TIF> >0x21 TIF> >0x0D TIF> >0x28 TIF> >0x0D TIF> >0x28 TIF> >0x0D TIF> >0x28 TIF> >0x0D TIF> >0x28 TIF> >0x0D TIF> >0x28 TIF> >0x0D TIF> >0x21 TIF> >0x0D TIF> >0x21 TIF> >0x0D TIF> >0x21 TIF> >0x0D TIF> >0x28 TIF> >0x0D TIF> >0x21 TIF> >0x0D TIF> >0x21 TIF> >0x0D TIF> >0x28 TIF> >0x0D TIF> >0x21 TIF> >0x0D TIF> >0x21 TIF>FPUnit: 4 code (BP) slots and 0 literal slots >0x0D TIF> >0x28 TIF> >0x0D TIF> >0x21 TIF> >0x0D TIF> >0x21 TIF> >0x0D TIF>
 >0x28 TIF> >0x0D TIF> >0x28 TIF> >0x0D TIF> >0x28 TIF> >0x0D TIF> >0x21 TIF> >0x0D TIF> >0x21 TIF> >0x0D TIF> >0x28 TIF> >0x0D TIF> >0x21 TIF> >0x0D TIF> >0x21 TIF> >0x0D TIF> >0x28 TIF> >0x0D TIF> >0x21 TIF> >0x0D TIF> >0x21 TIF>Found Cortex-M0 r0p0, Little endian. >0x0D TIF> >0x21 TIF>  returns 0x0BB11477 (0055ms, 0384ms total)
T6388 000:452 JLINK_GetDeviceFamily()  returns 6 (0000ms, 0384ms total)
T6388 000:455 JLINK_ReadMem (0xE00FFFF0, 0x0010 Bytes, ...) -- CPU is running -- CPU_ReadMem(16 bytes @ 0xE00FFFF0) -- Data:  0D 00 00 00 10 00 00 00 05 00 00 00 B1 00 00 00  returns 0x00 (0000ms, 0384ms total)
T6388 000:455 JLINK_ReadMem (0xE00FFFD0, 0x0020 Bytes, ...) -- CPU is running -- CPU_ReadMem(32 bytes @ 0xE00FFFD0) -- Data:  04 00 00 00 00 00 00 00 00 00 00 00 00 00 00 00 ...  returns 0x00 (0001ms, 0385ms total)
T6388 000:456 JLINK_ReadMem (0xE00FF000, 0x0018 Bytes, ...) -- CPU is running -- CPU_ReadMem(24 bytes @ 0xE00FF000) -- Data:  03 F0 F0 FF 03 20 F0 FF 03 30 F0 FF 00 00 00 00 ...  returns 0x00 (0001ms, 0386ms total)
T6388 000:457 JLINK_ReadMemU32(0xE000ED00, 0x0001 Items, ...) -- CPU is running -- CPU_ReadMem(4 bytes @ 0xE000ED00) -- Data:  00 C2 0C 41  returns 0x01 (0001ms, 0387ms total)
T6388 000:458 JLINK_SetResetType(JLINKARM_RESET_TYPE_NORMAL)  returns JLINKARM_RESET_TYPE_NORMAL (0000ms, 0387ms total)
T6388 000:458 JLINK_Reset() -- CPU is running -- CPU_WriteMem(4 bytes @ 0xE000EDF0) -- CPU is running -- CPU_WriteMem(4 bytes @ 0xE000EDFC) >0x35 TIF> -- CPU is running -- CPU_WriteMem(4 bytes @ 0xE000ED0C) -- CPU is running -- CPU_ReadMem(4 bytes @ 0xE000EDF0) -- CPU is running -- CPU_ReadMem(4 bytes @ 0xE000EDF0) -- CPU is running -- CPU_WriteMem(4 bytes @ 0xE000EDF0) -- CPU is running -- CPU_WriteMem(4 bytes @ 0xE000EDFC) -- CPU is running -- CPU_ReadMem(4 bytes @ 0xE000EDF0)
 -- CPU_WriteMem(4 bytes @ 0xE0002000) (0017ms, 0404ms total)
T6388 000:475 JLINK_Halt()  returns 0x00 (0000ms, 0404ms total)
T6388 000:475 JLINK_IsHalted()  returns TRUE (0000ms, 0404ms total)
T6388 000:475 JLINK_ReadMemU32(0xE000EDF0, 0x0001 Items, ...) -- CPU_ReadMem(4 bytes @ 0xE000EDF0) -- Data:  03 00 03 00  returns 0x01 (0000ms, 0404ms total)
T6388 000:475 JLINK_WriteU32(0xE000EDF0, 0xA05F0003) -- CPU_WriteMem(4 bytes @ 0xE000EDF0)  returns 0x00 (0000ms, 0404ms total)
T6388 000:475 JLINK_WriteU32(0xE000EDFC, 0x01000000) -- CPU_WriteMem(4 bytes @ 0xE000EDFC)  returns 0x00 (0001ms, 0405ms total)
T6388 000:484 JLINK_GetHWStatus(...)  returns 0x00 (0000ms, 0405ms total)
T6388 000:494 JLINK_GetNumBPUnits(Type = 0xFFFFFF00)  returns 0x04 (0000ms, 0405ms total)
T6388 000:494 JLINK_GetNumBPUnits(Type = 0xF0)  returns 0x2000 (0000ms, 0405ms total)
T6388 000:494 JLINK_GetNumWPUnits()  returns 0x02 (0000ms, 0405ms total)
T6388 000:500 JLINK_GetSpeed()  returns 0x7D0 (0000ms, 0405ms total)
T6388 000:504 JLINK_ReadMemU32(0xE000E004, 0x0001 Items, ...) -- CPU_ReadMem(4 bytes @ 0xE000E004) -- Data:  00 00 00 00  returns 0x01 (0001ms, 0406ms total)
T6388 000:505 JLINK_Halt()  returns 0x00 (0000ms, 0406ms total)
T6388 000:505 JLINK_IsHalted()  returns TRUE (0000ms, 0406ms total)
T6388 000:511 JLINK_WriteMem(0x20000000, 0x01EC Bytes, ...) -- Data:  00 BE 0A E0 0D 78 2D 06 68 40 08 24 40 00 00 D3 ... -- CPU_WriteMem(492 bytes @ 0x20000000)  returns 0x1EC (0004ms, 0410ms total)
T6388 000:515 JLINK_WriteReg(R0, 0x00000000)  returns 0x00 (0000ms, 0410ms total)
T6388 000:515 JLINK_WriteReg(R1, 0x01312D00)  returns 0x00 (0000ms, 0410ms total)
T6388 000:515 JLINK_WriteReg(R2, 0x00000001)  returns 0x00 (0000ms, 0410ms total)
T6388 000:515 JLINK_WriteReg(R3, 0x00000000)  returns 0x00 (0001ms, 0411ms total)
T6388 000:516 JLINK_WriteReg(R4, 0x00000000)  returns 0x00 (0000ms, 0411ms total)
T6388 000:516 JLINK_WriteReg(R5, 0x00000000)  returns 0x00 (0000ms, 0411ms total)
T6388 000:516 JLINK_WriteReg(R6, 0x00000000)  returns 0x00 (0000ms, 0411ms total)
T6388 000:516 JLINK_WriteReg(R7, 0x00000000)  returns 0x00 (0000ms, 0411ms total)
T6388 000:516 JLINK_WriteReg(R8, 0x00000000)  returns 0x00 (0000ms, 0411ms total)
T6388 000:516 JLINK_WriteReg(R9, 0x200001E8)  returns 0x00 (0000ms, 0411ms total)
T6388 000:516 JLINK_WriteReg(R10, 0x00000000)  returns 0x00 (0000ms, 0411ms total)
T6388 000:516 JLINK_WriteReg(R11, 0x00000000)  returns 0x00 (0000ms, 0411ms total)
T6388 000:516 JLINK_WriteReg(R12, 0x00000000)  returns 0x00 (0000ms, 0411ms total)
T6388 000:516 JLINK_WriteReg(R13, 0x20002000)  returns 0x00 (0000ms, 0411ms total)
T6388 000:516 JLINK_WriteReg(R14, 0x20000001)  returns 0x00 (0000ms, 0411ms total)
T6388 000:516 JLINK_WriteReg(R15, 0x20000038)  returns 0x00 (0000ms, 0411ms total)
T6388 000:516 JLINK_WriteReg(XPSR, 0x01000000)  returns 0x00 (0000ms, 0411ms total)
T6388 000:516 JLINK_WriteReg(MSP, 0x20002000)  returns 0x00 (0000ms, 0411ms total)
T6388 000:516 JLINK_WriteReg(PSP, 0x20002000)  returns 0x00 (0000ms, 0411ms total)
T6388 000:516 JLINK_WriteReg(CFBP, 0x00000000)  returns 0x00 (0000ms, 0411ms total)
T6388 000:516 JLINK_SetBPEx(Addr = 0x20000000, Type = 0xFFFFFFF2) -- CPU_ReadMem(4 bytes @ 0x20000000) -- CPU_WriteMem(4 bytes @ 0x20000000) -- CPU_ReadMem(4 bytes @ 0x20000000) -- CPU_WriteMem(4 bytes @ 0x20000000) -- CPU_ReadMem(2 bytes @ 0x20000000)  returns 0x00000001 (0002ms, 0413ms total)
T6388 000:518 JLINK_Go() -- CPU_WriteMem(2 bytes @ 0x20000000) -- CPU_WriteMem(4 bytes @ 0xE0002008) -- CPU_WriteMem(4 bytes @ 0xE000200C) -- CPU_WriteMem(4 bytes @ 0xE0002010) -- CPU_WriteMem(4 bytes @ 0xE0002014) (0004ms, 0417ms total)
T6388 000:523 JLINK_IsHalted() -- CPU_ReadMem(2 bytes @ 0x20000000)  returns TRUE (0003ms, 0421ms total)
T6388 000:526 JLINK_ReadReg(R15)  returns 0x20000000 (0000ms, 0418ms total)
T6388 000:526 JLINK_ClrBPEx(BPHandle = 0x00000001)  returns 0x00 (0000ms, 0418ms total)
T6388 000:526 JLINK_ReadReg(R0)  returns 0x00000000 (0000ms, 0418ms total)
T6388 000:527 JLINK_WriteReg(R0, 0x00000000)  returns 0x00 (0000ms, 0418ms total)
T6388 000:527 JLINK_WriteReg(R1, 0x01312D00)  returns 0x00 (0000ms, 0418ms total)
T6388 000:527 JLINK_WriteReg(R2, 0x00000001)  returns 0x00 (0000ms, 0418ms total)
T6388 000:527 JLINK_WriteReg(R3, 0x00000000)  returns 0x00 (0000ms, 0418ms total)
T6388 000:527 JLINK_WriteReg(R4, 0x00000000)  returns 0x00 (0000ms, 0418ms total)
T6388 000:527 JLINK_WriteReg(R5, 0x00000000)  returns 0x00 (0000ms, 0418ms total)
T6388 000:527 JLINK_WriteReg(R6, 0x00000000)  returns 0x00 (0000ms, 0418ms total)
T6388 000:527 JLINK_WriteReg(R7, 0x00000000)  returns 0x00 (0000ms, 0418ms total)
T6388 000:527 JLINK_WriteReg(R8, 0x00000000)  returns 0x00 (0000ms, 0418ms total)
T6388 000:527 JLINK_WriteReg(R9, 0x200001E8)  returns 0x00 (0000ms, 0418ms total)
T6388 000:527 JLINK_WriteReg(R10, 0x00000000)  returns 0x00 (0000ms, 0418ms total)
T6388 000:527 JLINK_WriteReg(R11, 0x00000000)  returns 0x00 (0000ms, 0418ms total)
T6388 000:527 JLINK_WriteReg(R12, 0x00000000)  returns 0x00 (0001ms, 0419ms total)
T6388 000:528 JLINK_WriteReg(R13, 0x20002000)  returns 0x00 (0000ms, 0419ms total)
T6388 000:528 JLINK_WriteReg(R14, 0x20000001)  returns 0x00 (0000ms, 0419ms total)
T6388 000:528 JLINK_WriteReg(R15, 0x20000084)  returns 0x00 (0000ms, 0419ms total)
T6388 000:528 JLINK_WriteReg(XPSR, 0x01000000)  returns 0x00 (0000ms, 0419ms total)
T6388 000:528 JLINK_WriteReg(MSP, 0x20002000)  returns 0x00 (0000ms, 0419ms total)
T6388 000:528 JLINK_WriteReg(PSP, 0x20002000)  returns 0x00 (0000ms, 0419ms total)
T6388 000:528 JLINK_WriteReg(CFBP, 0x00000000)  returns 0x00 (0000ms, 0419ms total)
T6388 000:528 JLINK_SetBPEx(Addr = 0x20000000, Type = 0xFFFFFFF2)  returns 0x00000002 (0000ms, 0419ms total)
T6388 000:528 JLINK_Go() (0001ms, 0420ms total)
T6388 000:529 JLINK_IsHalted()  returns FALSE (0000ms, 0420ms total)
T6388 000:581 JLINK_IsHalted() -- CPU_ReadMem(2 bytes @ 0x20000000)  returns TRUE (0003ms, 0423ms total)
T6388 000:584 JLINK_ReadReg(R15)  returns 0x20000000 (0000ms, 0420ms total)
T6388 000:584 JLINK_ClrBPEx(BPHandle = 0x00000002)  returns 0x00 (0000ms, 0420ms total)
T6388 000:584 JLINK_ReadReg(R0)  returns 0x00000000 (0000ms, 0420ms total)
T6388 000:637 JLINK_WriteReg(R0, 0x00000001)  returns 0x00 (0000ms, 0420ms total)
T6388 000:637 JLINK_WriteReg(R1, 0x01312D00)  returns 0x00 (0000ms, 0420ms total)
T6388 000:637 JLINK_WriteReg(R2, 0x00000001)  returns 0x00 (0000ms, 0420ms total)
T6388 000:637 JLINK_WriteReg(R3, 0x00000000)  returns 0x00 (0000ms, 0420ms total)
T6388 000:637 JLINK_WriteReg(R4, 0x00000000)  returns 0x00 (0000ms, 0420ms total)
T6388 000:637 JLINK_WriteReg(R5, 0x00000000)  returns 0x00 (0000ms, 0420ms total)
T6388 000:637 JLINK_WriteReg(R6, 0x00000000)  returns 0x00 (0000ms, 0420ms total)
T6388 000:637 JLINK_WriteReg(R7, 0x00000000)  returns 0x00 (0000ms, 0420ms total)
T6388 000:637 JLINK_WriteReg(R8, 0x00000000)  returns 0x00 (0000ms, 0420ms total)
T6388 000:637 JLINK_WriteReg(R9, 0x200001E8)  returns 0x00 (0000ms, 0420ms total)
T6388 000:637 JLINK_WriteReg(R10, 0x00000000)  returns 0x00 (0000ms, 0420ms total)
T6388 000:637 JLINK_WriteReg(R11, 0x00000000)  returns 0x00 (0000ms, 0420ms total)
T6388 000:637 JLINK_WriteReg(R12, 0x00000000)  returns 0x00 (0000ms, 0420ms total)
T6388 000:637 JLINK_WriteReg(R13, 0x20002000)  returns 0x00 (0000ms, 0420ms total)
T6388 000:637 JLINK_WriteReg(R14, 0x20000001)  returns 0x00 (0000ms, 0420ms total)
T6388 000:637 JLINK_WriteReg(R15, 0x20000060)  returns 0x00 (0000ms, 0420ms total)
T6388 000:637 JLINK_WriteReg(XPSR, 0x01000000)  returns 0x00 (0001ms, 0421ms total)
T6388 000:638 JLINK_WriteReg(MSP, 0x20002000)  returns 0x00 (0000ms, 0421ms total)
T6388 000:638 JLINK_WriteReg(PSP, 0x20002000)  returns 0x00 (0000ms, 0421ms total)
T6388 000:638 JLINK_WriteReg(CFBP, 0x00000000)  returns 0x00 (0000ms, 0421ms total)
T6388 000:638 JLINK_SetBPEx(Addr = 0x20000000, Type = 0xFFFFFFF2)  returns 0x00000003 (0000ms, 0421ms total)
T6388 000:638 JLINK_Go() (0001ms, 0422ms total)
T6388 000:639 JLINK_IsHalted() -- CPU_ReadMem(2 bytes @ 0x20000000)  returns TRUE (0004ms, 0426ms total)
T6388 000:643 JLINK_ReadReg(R15)  returns 0x20000000 (0000ms, 0422ms total)
T6388 000:643 JLINK_ClrBPEx(BPHandle = 0x00000003)  returns 0x00 (0000ms, 0422ms total)
T6388 000:643 JLINK_ReadReg(R0)  returns 0x00000000 (0000ms, 0422ms total)
T6388 000:649 JLINK_WriteMem(0x20000000, 0x01EC Bytes, ...) -- Data:  00 BE 0A E0 0D 78 2D 06 68 40 08 24 40 00 00 D3 ... -- CPU_WriteMem(492 bytes @ 0x20000000)  returns 0x1EC (0003ms, 0425ms total)
T6388 000:652 JLINK_WriteReg(R0, 0x00000000)  returns 0x00 (0000ms, 0425ms total)
T6388 000:653 JLINK_WriteReg(R1, 0x01312D00)  returns 0x00 (0000ms, 0425ms total)
T6388 000:653 JLINK_WriteReg(R2, 0x00000002)  returns 0x00 (0000ms, 0425ms total)
T6388 000:653 JLINK_WriteReg(R3, 0x00000000)  returns 0x00 (0000ms, 0425ms total)
T6388 000:653 JLINK_WriteReg(R4, 0x00000000)  returns 0x00 (0000ms, 0425ms total)
T6388 000:653 JLINK_WriteReg(R5, 0x00000000)  returns 0x00 (0000ms, 0425ms total)
T6388 000:653 JLINK_WriteReg(R6, 0x00000000)  returns 0x00 (0000ms, 0425ms total)
T6388 000:653 JLINK_WriteReg(R7, 0x00000000)  returns 0x00 (0000ms, 0425ms total)
T6388 000:653 JLINK_WriteReg(R8, 0x00000000)  returns 0x00 (0000ms, 0425ms total)
T6388 000:653 JLINK_WriteReg(R9, 0x200001E8)  returns 0x00 (0000ms, 0425ms total)
T6388 000:653 JLINK_WriteReg(R10, 0x00000000)  returns 0x00 (0000ms, 0425ms total)
T6388 000:653 JLINK_WriteReg(R11, 0x00000000)  returns 0x00 (0000ms, 0425ms total)
T6388 000:653 JLINK_WriteReg(R12, 0x00000000)  returns 0x00 (0000ms, 0425ms total)
T6388 000:653 JLINK_WriteReg(R13, 0x20002000)  returns 0x00 (0000ms, 0425ms total)
T6388 000:653 JLINK_WriteReg(R14, 0x20000001)  returns 0x00 (0000ms, 0425ms total)
T6388 000:653 JLINK_WriteReg(R15, 0x20000038)  returns 0x00 (0000ms, 0425ms total)
T6388 000:653 JLINK_WriteReg(XPSR, 0x01000000)  returns 0x00 (0000ms, 0425ms total)
T6388 000:653 JLINK_WriteReg(MSP, 0x20002000)  returns 0x00 (0000ms, 0425ms total)
T6388 000:653 JLINK_WriteReg(PSP, 0x20002000)  returns 0x00 (0000ms, 0425ms total)
T6388 000:653 JLINK_WriteReg(CFBP, 0x00000000)  returns 0x00 (0000ms, 0425ms total)
T6388 000:653 JLINK_SetBPEx(Addr = 0x20000000, Type = 0xFFFFFFF2) -- CPU_ReadMem(4 bytes @ 0x20000000) -- CPU_WriteMem(4 bytes @ 0x20000000) -- CPU_ReadMem(4 bytes @ 0x20000000) -- CPU_WriteMem(4 bytes @ 0x20000000) -- CPU_ReadMem(2 bytes @ 0x20000000)  returns 0x00000004 (0002ms, 0427ms total)
T6388 000:655 JLINK_Go() -- CPU_WriteMem(2 bytes @ 0x20000000) (0002ms, 0429ms total)
T6388 000:657 JLINK_IsHalted() -- CPU_ReadMem(2 bytes @ 0x20000000)  returns TRUE (0004ms, 0433ms total)
T6388 000:661 JLINK_ReadReg(R15)  returns 0x20000000 (0000ms, 0429ms total)
T6388 000:661 JLINK_ClrBPEx(BPHandle = 0x00000004)  returns 0x00 (0000ms, 0429ms total)
T6388 000:661 JLINK_ReadReg(R0)  returns 0x00000000 (0000ms, 0429ms total)
T6388 000:662 JLINK_WriteMem(0x200001EC, 0x0214 Bytes, ...) -- Data:  88 07 00 20 D5 00 00 00 AD 6E 00 00 AF 6E 00 00 ... -- CPU_WriteMem(532 bytes @ 0x200001EC)  returns 0x214 (0004ms, 0433ms total)
T6388 000:666 JLINK_WriteMem(0x20000400, 0x01EC Bytes, ...) -- Data:  05 E0 28 68 30 60 36 1D 2D 1D 48 1C C1 B2 91 42 ... -- CPU_WriteMem(492 bytes @ 0x20000400)  returns 0x1EC (0004ms, 0437ms total)
T6388 000:670 JLINK_WriteReg(R0, 0x00000000)  returns 0x00 (0000ms, 0437ms total)
T6388 000:670 JLINK_WriteReg(R1, 0x00000400)  returns 0x00 (0000ms, 0437ms total)
T6388 000:670 JLINK_WriteReg(R2, 0x200001EC)  returns 0x00 (0000ms, 0437ms total)
T6388 000:670 JLINK_WriteReg(R3, 0x00000000)  returns 0x00 (0000ms, 0437ms total)
T6388 000:670 JLINK_WriteReg(R4, 0x00000000)  returns 0x00 (0000ms, 0437ms total)
T6388 000:670 JLINK_WriteReg(R5, 0x00000000)  returns 0x00 (0000ms, 0437ms total)
T6388 000:670 JLINK_WriteReg(R6, 0x00000000)  returns 0x00 (0000ms, 0437ms total)
T6388 000:670 JLINK_WriteReg(R7, 0x00000000)  returns 0x00 (0000ms, 0437ms total)
T6388 000:670 JLINK_WriteReg(R8, 0x00000000)  returns 0x00 (0000ms, 0437ms total)
T6388 000:670 JLINK_WriteReg(R9, 0x200001E8)  returns 0x00 (0000ms, 0437ms total)
T6388 000:670 JLINK_WriteReg(R10, 0x00000000)  returns 0x00 (0000ms, 0437ms total)
T6388 000:670 JLINK_WriteReg(R11, 0x00000000)  returns 0x00 (0000ms, 0437ms total)
T6388 000:670 JLINK_WriteReg(R12, 0x00000000)  returns 0x00 (0000ms, 0437ms total)
T6388 000:670 JLINK_WriteReg(R13, 0x20002000)  returns 0x00 (0000ms, 0437ms total)
T6388 000:670 JLINK_WriteReg(R14, 0x20000001)  returns 0x00 (0000ms, 0437ms total)
T6388 000:670 JLINK_WriteReg(R15, 0x20000148)  returns 0x00 (0000ms, 0437ms total)
T6388 000:670 JLINK_WriteReg(XPSR, 0x01000000)  returns 0x00 (0000ms, 0437ms total)
T6388 000:670 JLINK_WriteReg(MSP, 0x20002000)  returns 0x00 (0000ms, 0437ms total)
T6388 000:670 JLINK_WriteReg(PSP, 0x20002000)  returns 0x00 (0000ms, 0437ms total)
T6388 000:670 JLINK_WriteReg(CFBP, 0x00000000)  returns 0x00 (0000ms, 0437ms total)
T6388 000:670 JLINK_SetBPEx(Addr = 0x20000000, Type = 0xFFFFFFF2)  returns 0x00000005 (0000ms, 0437ms total)
T6388 000:670 JLINK_Go() (0002ms, 0439ms total)
T6388 000:672 JLINK_IsHalted()  returns FALSE (0000ms, 0439ms total)
T6388 000:723 JLINK_IsHalted() -- CPU_ReadMem(2 bytes @ 0x20000000)  returns TRUE (0003ms, 0442ms total)
T6388 000:726 JLINK_ReadReg(R15)  returns 0x20000000 (0000ms, 0439ms total)
T6388 000:726 JLINK_ClrBPEx(BPHandle = 0x00000005)  returns 0x00 (0000ms, 0439ms total)
T6388 000:726 JLINK_ReadReg(R0)  returns 0x00000000 (0000ms, 0439ms total)
T6388 000:727 JLINK_WriteMem(0x200001EC, 0x0214 Bytes, ...) -- Data:  00 6B 00 0B 00 03 CA 88 12 05 12 0D 10 43 30 4A ... -- CPU_WriteMem(532 bytes @ 0x200001EC)  returns 0x214 (0004ms, 0443ms total)
T6388 000:731 JLINK_WriteMem(0x20000400, 0x01EC Bytes, ...) -- Data:  10 B5 04 46 21 7B A0 68 FF F7 69 FF 20 78 62 49 ... -- CPU_WriteMem(492 bytes @ 0x20000400)  returns 0x1EC (0004ms, 0447ms total)
T6388 000:735 JLINK_WriteReg(R0, 0x00000400)  returns 0x00 (0000ms, 0447ms total)
T6388 000:735 JLINK_WriteReg(R1, 0x00000400)  returns 0x00 (0000ms, 0447ms total)
T6388 000:736 JLINK_WriteReg(R2, 0x200001EC)  returns 0x00 (0000ms, 0447ms total)
T6388 000:736 JLINK_WriteReg(R3, 0x00000000)  returns 0x00 (0000ms, 0447ms total)
T6388 000:736 JLINK_WriteReg(R4, 0x00000000)  returns 0x00 (0000ms, 0447ms total)
T6388 000:736 JLINK_WriteReg(R5, 0x00000000)  returns 0x00 (0000ms, 0447ms total)
T6388 000:736 JLINK_WriteReg(R6, 0x00000000)  returns 0x00 (0000ms, 0447ms total)
T6388 000:736 JLINK_WriteReg(R7, 0x00000000)  returns 0x00 (0000ms, 0447ms total)
T6388 000:736 JLINK_WriteReg(R8, 0x00000000)  returns 0x00 (0000ms, 0447ms total)
T6388 000:736 JLINK_WriteReg(R9, 0x200001E8)  returns 0x00 (0000ms, 0447ms total)
T6388 000:736 JLINK_WriteReg(R10, 0x00000000)  returns 0x00 (0000ms, 0447ms total)
T6388 000:736 JLINK_WriteReg(R11, 0x00000000)  returns 0x00 (0000ms, 0447ms total)
T6388 000:736 JLINK_WriteReg(R12, 0x00000000)  returns 0x00 (0000ms, 0447ms total)
T6388 000:736 JLINK_WriteReg(R13, 0x20002000)  returns 0x00 (0000ms, 0447ms total)
T6388 000:736 JLINK_WriteReg(R14, 0x20000001)  returns 0x00 (0000ms, 0447ms total)
T6388 000:736 JLINK_WriteReg(R15, 0x20000148)  returns 0x00 (0000ms, 0447ms total)
T6388 000:736 JLINK_WriteReg(XPSR, 0x01000000)  returns 0x00 (0000ms, 0447ms total)
T6388 000:736 JLINK_WriteReg(MSP, 0x20002000)  returns 0x00 (0000ms, 0447ms total)
T6388 000:736 JLINK_WriteReg(PSP, 0x20002000)  returns 0x00 (0000ms, 0447ms total)
T6388 000:736 JLINK_WriteReg(CFBP, 0x00000000)  returns 0x00 (0000ms, 0447ms total)
T6388 000:736 JLINK_SetBPEx(Addr = 0x20000000, Type = 0xFFFFFFF2)  returns 0x00000006 (0000ms, 0447ms total)
T6388 000:736 JLINK_Go() (0002ms, 0449ms total)
T6388 000:738 JLINK_IsHalted()  returns FALSE (0000ms, 0449ms total)
T6388 000:789 JLINK_IsHalted() -- CPU_ReadMem(2 bytes @ 0x20000000)  returns TRUE (0003ms, 0452ms total)
T6388 000:792 JLINK_ReadReg(R15)  returns 0x20000000 (0000ms, 0449ms total)
T6388 000:792 JLINK_ClrBPEx(BPHandle = 0x00000006)  returns 0x00 (0000ms, 0449ms total)
T6388 000:792 JLINK_ReadReg(R0)  returns 0x00000000 (0000ms, 0449ms total)
T6388 000:793 JLINK_WriteMem(0x200001EC, 0x0214 Bytes, ...) -- Data:  E1 E0 DF DE DD DC DB DA D9 D8 D7 D6 D5 D4 D3 D2 ... -- CPU_WriteMem(532 bytes @ 0x200001EC)  returns 0x214 (0005ms, 0454ms total)
T6388 000:798 JLINK_WriteMem(0x20000400, 0x01EC Bytes, ...) -- Data:  63 62 82 E1 7A 4B 80 3B 5B 6A 03 24 24 04 A3 43 ... -- CPU_WriteMem(492 bytes @ 0x20000400)  returns 0x1EC (0003ms, 0457ms total)
T6388 000:801 JLINK_WriteReg(R0, 0x00000800)  returns 0x00 (0000ms, 0457ms total)
T6388 000:801 JLINK_WriteReg(R1, 0x00000400)  returns 0x00 (0000ms, 0457ms total)
T6388 000:801 JLINK_WriteReg(R2, 0x200001EC)  returns 0x00 (0001ms, 0458ms total)
T6388 000:802 JLINK_WriteReg(R3, 0x00000000)  returns 0x00 (0000ms, 0458ms total)
T6388 000:802 JLINK_WriteReg(R4, 0x00000000)  returns 0x00 (0000ms, 0458ms total)
T6388 000:802 JLINK_WriteReg(R5, 0x00000000)  returns 0x00 (0000ms, 0458ms total)
T6388 000:802 JLINK_WriteReg(R6, 0x00000000)  returns 0x00 (0000ms, 0458ms total)
T6388 000:802 JLINK_WriteReg(R7, 0x00000000)  returns 0x00 (0000ms, 0458ms total)
T6388 000:802 JLINK_WriteReg(R8, 0x00000000)  returns 0x00 (0000ms, 0458ms total)
T6388 000:802 JLINK_WriteReg(R9, 0x200001E8)  returns 0x00 (0000ms, 0458ms total)
T6388 000:802 JLINK_WriteReg(R10, 0x00000000)  returns 0x00 (0000ms, 0458ms total)
T6388 000:802 JLINK_WriteReg(R11, 0x00000000)  returns 0x00 (0000ms, 0458ms total)
T6388 000:802 JLINK_WriteReg(R12, 0x00000000)  returns 0x00 (0000ms, 0458ms total)
T6388 000:802 JLINK_WriteReg(R13, 0x20002000)  returns 0x00 (0000ms, 0458ms total)
T6388 000:802 JLINK_WriteReg(R14, 0x20000001)  returns 0x00 (0000ms, 0458ms total)
T6388 000:802 JLINK_WriteReg(R15, 0x20000148)  returns 0x00 (0000ms, 0458ms total)
T6388 000:802 JLINK_WriteReg(XPSR, 0x01000000)  returns 0x00 (0000ms, 0458ms total)
T6388 000:802 JLINK_WriteReg(MSP, 0x20002000)  returns 0x00 (0000ms, 0458ms total)
T6388 000:802 JLINK_WriteReg(PSP, 0x20002000)  returns 0x00 (0000ms, 0458ms total)
T6388 000:802 JLINK_WriteReg(CFBP, 0x00000000)  returns 0x00 (0000ms, 0458ms total)
T6388 000:802 JLINK_SetBPEx(Addr = 0x20000000, Type = 0xFFFFFFF2)  returns 0x00000007 (0000ms, 0458ms total)
T6388 000:802 JLINK_Go() (0002ms, 0460ms total)
T6388 000:804 JLINK_IsHalted()  returns FALSE (0000ms, 0460ms total)
T6388 000:855 JLINK_IsHalted() -- CPU_ReadMem(2 bytes @ 0x20000000)  returns TRUE (0004ms, 0464ms total)
T6388 000:859 JLINK_ReadReg(R15)  returns 0x20000000 (0000ms, 0460ms total)
T6388 000:859 JLINK_ClrBPEx(BPHandle = 0x00000007)  returns 0x00 (0000ms, 0460ms total)
T6388 000:859 JLINK_ReadReg(R0)  returns 0x00000000 (0000ms, 0460ms total)
T6388 000:860 JLINK_WriteMem(0x200001EC, 0x0214 Bytes, ...) -- Data:  8D E0 00 00 80 04 00 40 F7 4B DB 6A 03 24 24 05 ... -- CPU_WriteMem(532 bytes @ 0x200001EC)  returns 0x214 (0004ms, 0464ms total)
T6388 000:864 JLINK_WriteMem(0x20000400, 0x01EC Bytes, ...) -- Data:  00 20 00 BF 00 BF 00 BD 30 B5 05 46 0C 46 28 46 ... -- CPU_WriteMem(492 bytes @ 0x20000400)  returns 0x1EC (0004ms, 0468ms total)
T6388 000:868 JLINK_WriteReg(R0, 0x00000C00)  returns 0x00 (0000ms, 0468ms total)
T6388 000:868 JLINK_WriteReg(R1, 0x00000400)  returns 0x00 (0000ms, 0468ms total)
T6388 000:868 JLINK_WriteReg(R2, 0x200001EC)  returns 0x00 (0000ms, 0468ms total)
T6388 000:868 JLINK_WriteReg(R3, 0x00000000)  returns 0x00 (0000ms, 0468ms total)
T6388 000:868 JLINK_WriteReg(R4, 0x00000000)  returns 0x00 (0000ms, 0468ms total)
T6388 000:868 JLINK_WriteReg(R5, 0x00000000)  returns 0x00 (0000ms, 0468ms total)
T6388 000:868 JLINK_WriteReg(R6, 0x00000000)  returns 0x00 (0000ms, 0468ms total)
T6388 000:868 JLINK_WriteReg(R7, 0x00000000)  returns 0x00 (0001ms, 0469ms total)
T6388 000:869 JLINK_WriteReg(R8, 0x00000000)  returns 0x00 (0000ms, 0469ms total)
T6388 000:869 JLINK_WriteReg(R9, 0x200001E8)  returns 0x00 (0000ms, 0469ms total)
T6388 000:869 JLINK_WriteReg(R10, 0x00000000)  returns 0x00 (0000ms, 0469ms total)
T6388 000:869 JLINK_WriteReg(R11, 0x00000000)  returns 0x00 (0000ms, 0469ms total)
T6388 000:869 JLINK_WriteReg(R12, 0x00000000)  returns 0x00 (0000ms, 0469ms total)
T6388 000:869 JLINK_WriteReg(R13, 0x20002000)  returns 0x00 (0000ms, 0469ms total)
T6388 000:869 JLINK_WriteReg(R14, 0x20000001)  returns 0x00 (0000ms, 0469ms total)
T6388 000:869 JLINK_WriteReg(R15, 0x20000148)  returns 0x00 (0000ms, 0469ms total)
T6388 000:869 JLINK_WriteReg(XPSR, 0x01000000)  returns 0x00 (0000ms, 0469ms total)
T6388 000:869 JLINK_WriteReg(MSP, 0x20002000)  returns 0x00 (0000ms, 0469ms total)
T6388 000:869 JLINK_WriteReg(PSP, 0x20002000)  returns 0x00 (0000ms, 0469ms total)
T6388 000:869 JLINK_WriteReg(CFBP, 0x00000000)  returns 0x00 (0000ms, 0469ms total)
T6388 000:869 JLINK_SetBPEx(Addr = 0x20000000, Type = 0xFFFFFFF2)  returns 0x00000008 (0000ms, 0469ms total)
T6388 000:869 JLINK_Go() (0001ms, 0470ms total)
T6388 000:870 JLINK_IsHalted()  returns FALSE (0001ms, 0471ms total)
T6388 000:922 JLINK_IsHalted() -- CPU_ReadMem(2 bytes @ 0x20000000)  returns TRUE (0003ms, 0473ms total)
T6388 000:925 JLINK_ReadReg(R15)  returns 0x20000000 (0000ms, 0470ms total)
T6388 000:925 JLINK_ClrBPEx(BPHandle = 0x00000008)  returns 0x00 (0000ms, 0470ms total)
T6388 000:925 JLINK_ReadReg(R0)  returns 0x00000000 (0000ms, 0470ms total)
T6388 000:926 JLINK_WriteMem(0x200001EC, 0x0214 Bytes, ...) -- Data:  0C 46 28 46 FF F7 8D FE 02 46 0D 2D 15 DC 00 2C ... -- CPU_WriteMem(532 bytes @ 0x200001EC)  returns 0x214 (0004ms, 0474ms total)
T6388 000:930 JLINK_WriteMem(0x20000400, 0x01EC Bytes, ...) -- Data:  00 BF 00 BF 00 BF 02 20 22 E0 00 BF 00 BF 00 BF ... -- CPU_WriteMem(492 bytes @ 0x20000400)  returns 0x1EC (0005ms, 0479ms total)
T6388 000:935 JLINK_WriteReg(R0, 0x00001000)  returns 0x00 (0000ms, 0479ms total)
T6388 000:935 JLINK_WriteReg(R1, 0x00000400)  returns 0x00 (0000ms, 0479ms total)
T6388 000:935 JLINK_WriteReg(R2, 0x200001EC)  returns 0x00 (0000ms, 0479ms total)
T6388 000:935 JLINK_WriteReg(R3, 0x00000000)  returns 0x00 (0000ms, 0479ms total)
T6388 000:935 JLINK_WriteReg(R4, 0x00000000)  returns 0x00 (0000ms, 0479ms total)
T6388 000:935 JLINK_WriteReg(R5, 0x00000000)  returns 0x00 (0000ms, 0479ms total)
T6388 000:935 JLINK_WriteReg(R6, 0x00000000)  returns 0x00 (0000ms, 0479ms total)
T6388 000:935 JLINK_WriteReg(R7, 0x00000000)  returns 0x00 (0000ms, 0479ms total)
T6388 000:935 JLINK_WriteReg(R8, 0x00000000)  returns 0x00 (0000ms, 0479ms total)
T6388 000:935 JLINK_WriteReg(R9, 0x200001E8)  returns 0x00 (0000ms, 0479ms total)
T6388 000:935 JLINK_WriteReg(R10, 0x00000000)  returns 0x00 (0000ms, 0479ms total)
T6388 000:935 JLINK_WriteReg(R11, 0x00000000)  returns 0x00 (0000ms, 0479ms total)
T6388 000:935 JLINK_WriteReg(R12, 0x00000000)  returns 0x00 (0000ms, 0479ms total)
T6388 000:935 JLINK_WriteReg(R13, 0x20002000)  returns 0x00 (0000ms, 0479ms total)
T6388 000:935 JLINK_WriteReg(R14, 0x20000001)  returns 0x00 (0000ms, 0479ms total)
T6388 000:935 JLINK_WriteReg(R15, 0x20000148)  returns 0x00 (0000ms, 0479ms total)
T6388 000:935 JLINK_WriteReg(XPSR, 0x01000000)  returns 0x00 (0000ms, 0479ms total)
T6388 000:935 JLINK_WriteReg(MSP, 0x20002000)  returns 0x00 (0000ms, 0479ms total)
T6388 000:935 JLINK_WriteReg(PSP, 0x20002000)  returns 0x00 (0000ms, 0479ms total)
T6388 000:935 JLINK_WriteReg(CFBP, 0x00000000)  returns 0x00 (0000ms, 0479ms total)
T6388 000:935 JLINK_SetBPEx(Addr = 0x20000000, Type = 0xFFFFFFF2)  returns 0x00000009 (0000ms, 0479ms total)
T6388 000:935 JLINK_Go() (0002ms, 0481ms total)
T6388 000:937 JLINK_IsHalted()  returns FALSE (0000ms, 0481ms total)
T6388 000:989 JLINK_IsHalted() -- CPU_ReadMem(2 bytes @ 0x20000000)  returns TRUE (0004ms, 0485ms total)
T6388 000:993 JLINK_ReadReg(R15)  returns 0x20000000 (0000ms, 0481ms total)
T6388 000:993 JLINK_ClrBPEx(BPHandle = 0x00000009)  returns 0x00 (0000ms, 0481ms total)
T6388 000:993 JLINK_ReadReg(R0)  returns 0x00000000 (0000ms, 0481ms total)
T6388 000:993 JLINK_WriteMem(0x200001EC, 0x0214 Bytes, ...) -- Data:  E6 48 04 60 01 20 90 40 E5 49 08 60 F0 BD 30 B5 ... -- CPU_WriteMem(532 bytes @ 0x200001EC)  returns 0x214 (0005ms, 0486ms total)
T6388 000:998 JLINK_WriteMem(0x20000400, 0x01EC Bytes, ...) -- Data:  05 20 01 E0 00 20 00 BF 00 BF 00 BD F0 B5 06 46 ... -- CPU_WriteMem(492 bytes @ 0x20000400)  returns 0x1EC (0004ms, 0490ms total)
T6388 001:002 JLINK_WriteReg(R0, 0x00001400)  returns 0x00 (0000ms, 0490ms total)
T6388 001:002 JLINK_WriteReg(R1, 0x00000400)  returns 0x00 (0000ms, 0490ms total)
T6388 001:002 JLINK_WriteReg(R2, 0x200001EC)  returns 0x00 (0000ms, 0490ms total)
T6388 001:002 JLINK_WriteReg(R3, 0x00000000)  returns 0x00 (0000ms, 0490ms total)
T6388 001:002 JLINK_WriteReg(R4, 0x00000000)  returns 0x00 (0000ms, 0490ms total)
T6388 001:002 JLINK_WriteReg(R5, 0x00000000)  returns 0x00 (0000ms, 0490ms total)
T6388 001:002 JLINK_WriteReg(R6, 0x00000000)  returns 0x00 (0000ms, 0490ms total)
T6388 001:002 JLINK_WriteReg(R7, 0x00000000)  returns 0x00 (0000ms, 0490ms total)
T6388 001:002 JLINK_WriteReg(R8, 0x00000000)  returns 0x00 (0000ms, 0490ms total)
T6388 001:002 JLINK_WriteReg(R9, 0x200001E8)  returns 0x00 (0000ms, 0490ms total)
T6388 001:002 JLINK_WriteReg(R10, 0x00000000)  returns 0x00 (0000ms, 0490ms total)
T6388 001:002 JLINK_WriteReg(R11, 0x00000000)  returns 0x00 (0000ms, 0490ms total)
T6388 001:002 JLINK_WriteReg(R12, 0x00000000)  returns 0x00 (0000ms, 0490ms total)
T6388 001:002 JLINK_WriteReg(R13, 0x20002000)  returns 0x00 (0000ms, 0490ms total)
T6388 001:002 JLINK_WriteReg(R14, 0x20000001)  returns 0x00 (0000ms, 0490ms total)
T6388 001:002 JLINK_WriteReg(R15, 0x20000148)  returns 0x00 (0000ms, 0490ms total)
T6388 001:002 JLINK_WriteReg(XPSR, 0x01000000)  returns 0x00 (0000ms, 0490ms total)
T6388 001:002 JLINK_WriteReg(MSP, 0x20002000)  returns 0x00 (0000ms, 0490ms total)
T6388 001:002 JLINK_WriteReg(PSP, 0x20002000)  returns 0x00 (0000ms, 0490ms total)
T6388 001:002 JLINK_WriteReg(CFBP, 0x00000000)  returns 0x00 (0000ms, 0490ms total)
T6388 001:002 JLINK_SetBPEx(Addr = 0x20000000, Type = 0xFFFFFFF2)  returns 0x0000000A (0000ms, 0490ms total)
T6388 001:002 JLINK_Go() (0002ms, 0492ms total)
T6388 001:004 JLINK_IsHalted()  returns FALSE (0000ms, 0492ms total)
T6388 001:056 JLINK_IsHalted() -- CPU_ReadMem(2 bytes @ 0x20000000)  returns TRUE (0004ms, 0496ms total)
T6388 001:060 JLINK_ReadReg(R15)  returns 0x20000000 (0000ms, 0492ms total)
T6388 001:060 JLINK_ClrBPEx(BPHandle = 0x0000000A)  returns 0x00 (0000ms, 0492ms total)
T6388 001:060 JLINK_ReadReg(R0)  returns 0x00000000 (0000ms, 0492ms total)
T6388 001:061 JLINK_WriteMem(0x200001EC, 0x0214 Bytes, ...) -- Data:  80 35 2C 60 30 BD 00 29 05 D0 17 4A 12 69 02 43 ... -- CPU_WriteMem(532 bytes @ 0x200001EC)  returns 0x214 (0004ms, 0496ms total)
T6388 001:065 JLINK_WriteMem(0x20000400, 0x01EC Bytes, ...) -- Data:  10 BD 10 B5 02 69 03 23 9B 03 9A 43 8B 03 03 24 ... -- CPU_WriteMem(492 bytes @ 0x20000400)  returns 0x1EC (0004ms, 0500ms total)
T6388 001:069 JLINK_WriteReg(R0, 0x00001800)  returns 0x00 (0000ms, 0500ms total)
T6388 001:069 JLINK_WriteReg(R1, 0x00000400)  returns 0x00 (0000ms, 0500ms total)
T6388 001:069 JLINK_WriteReg(R2, 0x200001EC)  returns 0x00 (0000ms, 0500ms total)
T6388 001:069 JLINK_WriteReg(R3, 0x00000000)  returns 0x00 (0000ms, 0500ms total)
T6388 001:069 JLINK_WriteReg(R4, 0x00000000)  returns 0x00 (0000ms, 0500ms total)
T6388 001:069 JLINK_WriteReg(R5, 0x00000000)  returns 0x00 (0000ms, 0500ms total)
T6388 001:069 JLINK_WriteReg(R6, 0x00000000)  returns 0x00 (0000ms, 0500ms total)
T6388 001:069 JLINK_WriteReg(R7, 0x00000000)  returns 0x00 (0000ms, 0500ms total)
T6388 001:069 JLINK_WriteReg(R8, 0x00000000)  returns 0x00 (0000ms, 0500ms total)
T6388 001:069 JLINK_WriteReg(R9, 0x200001E8)  returns 0x00 (0000ms, 0500ms total)
T6388 001:069 JLINK_WriteReg(R10, 0x00000000)  returns 0x00 (0000ms, 0500ms total)
T6388 001:069 JLINK_WriteReg(R11, 0x00000000)  returns 0x00 (0000ms, 0500ms total)
T6388 001:069 JLINK_WriteReg(R12, 0x00000000)  returns 0x00 (0000ms, 0500ms total)
T6388 001:070 JLINK_WriteReg(R13, 0x20002000)  returns 0x00 (0000ms, 0500ms total)
T6388 001:070 JLINK_WriteReg(R14, 0x20000001)  returns 0x00 (0000ms, 0500ms total)
T6388 001:070 JLINK_WriteReg(R15, 0x20000148)  returns 0x00 (0000ms, 0500ms total)
T6388 001:070 JLINK_WriteReg(XPSR, 0x01000000)  returns 0x00 (0000ms, 0500ms total)
T6388 001:070 JLINK_WriteReg(MSP, 0x20002000)  returns 0x00 (0000ms, 0500ms total)
T6388 001:070 JLINK_WriteReg(PSP, 0x20002000)  returns 0x00 (0000ms, 0500ms total)
T6388 001:070 JLINK_WriteReg(CFBP, 0x00000000)  returns 0x00 (0000ms, 0500ms total)
T6388 001:070 JLINK_SetBPEx(Addr = 0x20000000, Type = 0xFFFFFFF2)  returns 0x0000000B (0000ms, 0500ms total)
T6388 001:070 JLINK_Go() (0002ms, 0502ms total)
T6388 001:072 JLINK_IsHalted()  returns FALSE (0000ms, 0502ms total)
T6388 001:123 JLINK_IsHalted() -- CPU_ReadMem(2 bytes @ 0x20000000)  returns TRUE (0003ms, 0505ms total)
T6388 001:126 JLINK_ReadReg(R15)  returns 0x20000000 (0000ms, 0502ms total)
T6388 001:126 JLINK_ClrBPEx(BPHandle = 0x0000000B)  returns 0x00 (0000ms, 0502ms total)
T6388 001:126 JLINK_ReadReg(R0)  returns 0x00000000 (0000ms, 0502ms total)
T6388 001:127 JLINK_WriteMem(0x200001EC, 0x0214 Bytes, ...) -- Data:  9A 43 4B 79 DB 05 64 00 23 40 1A 43 82 61 82 69 ... -- CPU_WriteMem(532 bytes @ 0x200001EC)  returns 0x214 (0005ms, 0507ms total)
T6388 001:132 JLINK_WriteMem(0x20000400, 0x01EC Bytes, ...) -- Data:  23 40 1A 43 82 60 10 BD 82 68 92 00 92 08 8B 07 ... -- CPU_WriteMem(492 bytes @ 0x20000400)  returns 0x1EC (0005ms, 0512ms total)
T6388 001:137 JLINK_WriteReg(R0, 0x00001C00)  returns 0x00 (0000ms, 0512ms total)
T6388 001:137 JLINK_WriteReg(R1, 0x00000400)  returns 0x00 (0000ms, 0512ms total)
T6388 001:137 JLINK_WriteReg(R2, 0x200001EC)  returns 0x00 (0000ms, 0512ms total)
T6388 001:137 JLINK_WriteReg(R3, 0x00000000)  returns 0x00 (0000ms, 0512ms total)
T6388 001:137 JLINK_WriteReg(R4, 0x00000000)  returns 0x00 (0000ms, 0512ms total)
T6388 001:137 JLINK_WriteReg(R5, 0x00000000)  returns 0x00 (0000ms, 0512ms total)
T6388 001:137 JLINK_WriteReg(R6, 0x00000000)  returns 0x00 (0000ms, 0512ms total)
T6388 001:137 JLINK_WriteReg(R7, 0x00000000)  returns 0x00 (0000ms, 0512ms total)
T6388 001:137 JLINK_WriteReg(R8, 0x00000000)  returns 0x00 (0000ms, 0512ms total)
T6388 001:137 JLINK_WriteReg(R9, 0x200001E8)  returns 0x00 (0000ms, 0512ms total)
T6388 001:137 JLINK_WriteReg(R10, 0x00000000)  returns 0x00 (0000ms, 0512ms total)
T6388 001:137 JLINK_WriteReg(R11, 0x00000000)  returns 0x00 (0000ms, 0512ms total)
T6388 001:137 JLINK_WriteReg(R12, 0x00000000)  returns 0x00 (0000ms, 0512ms total)
T6388 001:137 JLINK_WriteReg(R13, 0x20002000)  returns 0x00 (0000ms, 0512ms total)
T6388 001:137 JLINK_WriteReg(R14, 0x20000001)  returns 0x00 (0000ms, 0512ms total)
T6388 001:137 JLINK_WriteReg(R15, 0x20000148)  returns 0x00 (0000ms, 0512ms total)
T6388 001:137 JLINK_WriteReg(XPSR, 0x01000000)  returns 0x00 (0000ms, 0512ms total)
T6388 001:137 JLINK_WriteReg(MSP, 0x20002000)  returns 0x00 (0000ms, 0512ms total)
T6388 001:137 JLINK_WriteReg(PSP, 0x20002000)  returns 0x00 (0000ms, 0512ms total)
T6388 001:137 JLINK_WriteReg(CFBP, 0x00000000)  returns 0x00 (0000ms, 0512ms total)
T6388 001:137 JLINK_SetBPEx(Addr = 0x20000000, Type = 0xFFFFFFF2)  returns 0x0000000C (0000ms, 0512ms total)
T6388 001:137 JLINK_Go() (0002ms, 0514ms total)
T6388 001:139 JLINK_IsHalted()  returns FALSE (0000ms, 0514ms total)
T6388 001:190 JLINK_IsHalted() -- CPU_ReadMem(2 bytes @ 0x20000000)  returns TRUE (0004ms, 0518ms total)
T6388 001:194 JLINK_ReadReg(R15)  returns 0x20000000 (0000ms, 0514ms total)
T6388 001:194 JLINK_ClrBPEx(BPHandle = 0x0000000C)  returns 0x00 (0000ms, 0514ms total)
T6388 001:194 JLINK_ReadReg(R0)  returns 0x00000000 (0000ms, 0514ms total)
T6388 001:195 JLINK_WriteMem(0x200001EC, 0x0214 Bytes, ...) -- Data:  03 91 02 90 05 F0 FC FC 07 46 83 21 C9 05 38 46 ... -- CPU_WriteMem(532 bytes @ 0x200001EC)  returns 0x214 (0005ms, 0519ms total)
T6388 001:200 JLINK_WriteMem(0x20000400, 0x01EC Bytes, ...) -- Data:  41 74 81 74 03 A9 27 20 FE F7 23 FF 00 21 68 46 ... -- CPU_WriteMem(492 bytes @ 0x20000400)  returns 0x1EC (0004ms, 0523ms total)
T6388 001:204 JLINK_WriteReg(R0, 0x00002000)  returns 0x00 (0000ms, 0523ms total)
T6388 001:204 JLINK_WriteReg(R1, 0x00000400)  returns 0x00 (0000ms, 0523ms total)
T6388 001:204 JLINK_WriteReg(R2, 0x200001EC)  returns 0x00 (0000ms, 0523ms total)
T6388 001:204 JLINK_WriteReg(R3, 0x00000000)  returns 0x00 (0000ms, 0523ms total)
T6388 001:204 JLINK_WriteReg(R4, 0x00000000)  returns 0x00 (0000ms, 0523ms total)
T6388 001:204 JLINK_WriteReg(R5, 0x00000000)  returns 0x00 (0000ms, 0523ms total)
T6388 001:204 JLINK_WriteReg(R6, 0x00000000)  returns 0x00 (0000ms, 0523ms total)
T6388 001:204 JLINK_WriteReg(R7, 0x00000000)  returns 0x00 (0000ms, 0523ms total)
T6388 001:204 JLINK_WriteReg(R8, 0x00000000)  returns 0x00 (0000ms, 0523ms total)
T6388 001:204 JLINK_WriteReg(R9, 0x200001E8)  returns 0x00 (0000ms, 0523ms total)
T6388 001:204 JLINK_WriteReg(R10, 0x00000000)  returns 0x00 (0000ms, 0523ms total)
T6388 001:204 JLINK_WriteReg(R11, 0x00000000)  returns 0x00 (0000ms, 0523ms total)
T6388 001:204 JLINK_WriteReg(R12, 0x00000000)  returns 0x00 (0000ms, 0523ms total)
T6388 001:204 JLINK_WriteReg(R13, 0x20002000)  returns 0x00 (0000ms, 0523ms total)
T6388 001:204 JLINK_WriteReg(R14, 0x20000001)  returns 0x00 (0000ms, 0523ms total)
T6388 001:204 JLINK_WriteReg(R15, 0x20000148)  returns 0x00 (0000ms, 0523ms total)
T6388 001:204 JLINK_WriteReg(XPSR, 0x01000000)  returns 0x00 (0000ms, 0523ms total)
T6388 001:204 JLINK_WriteReg(MSP, 0x20002000)  returns 0x00 (0000ms, 0523ms total)
T6388 001:204 JLINK_WriteReg(PSP, 0x20002000)  returns 0x00 (0000ms, 0523ms total)
T6388 001:204 JLINK_WriteReg(CFBP, 0x00000000)  returns 0x00 (0000ms, 0523ms total)
T6388 001:204 JLINK_SetBPEx(Addr = 0x20000000, Type = 0xFFFFFFF2)  returns 0x0000000D (0000ms, 0523ms total)
T6388 001:204 JLINK_Go() (0002ms, 0525ms total)
T6388 001:206 JLINK_IsHalted()  returns FALSE (0000ms, 0525ms total)
T6388 001:258 JLINK_IsHalted() -- CPU_ReadMem(2 bytes @ 0x20000000)  returns TRUE (0004ms, 0529ms total)
T6388 001:262 JLINK_ReadReg(R15)  returns 0x20000000 (0000ms, 0525ms total)
T6388 001:262 JLINK_ClrBPEx(BPHandle = 0x0000000D)  returns 0x00 (0000ms, 0525ms total)
T6388 001:262 JLINK_ReadReg(R0)  returns 0x00000000 (0000ms, 0525ms total)
T6388 001:263 JLINK_WriteMem(0x200001EC, 0x0214 Bytes, ...) -- Data:  01 98 48 60 FF F7 F0 FE 1C BD 1C B5 04 46 00 20 ... -- CPU_WriteMem(532 bytes @ 0x200001EC)  returns 0x214 (0004ms, 0529ms total)
T6388 001:267 JLINK_WriteMem(0x20000400, 0x01EC Bytes, ...) -- Data:  41 68 FF 31 2D 31 41 60 F7 22 12 01 41 68 91 42 ... -- CPU_WriteMem(492 bytes @ 0x20000400)  returns 0x1EC (0004ms, 0533ms total)
T6388 001:271 JLINK_WriteReg(R0, 0x00002400)  returns 0x00 (0000ms, 0533ms total)
T6388 001:271 JLINK_WriteReg(R1, 0x00000400)  returns 0x00 (0000ms, 0533ms total)
T6388 001:271 JLINK_WriteReg(R2, 0x200001EC)  returns 0x00 (0000ms, 0533ms total)
T6388 001:271 JLINK_WriteReg(R3, 0x00000000)  returns 0x00 (0000ms, 0533ms total)
T6388 001:271 JLINK_WriteReg(R4, 0x00000000)  returns 0x00 (0000ms, 0533ms total)
T6388 001:271 JLINK_WriteReg(R5, 0x00000000)  returns 0x00 (0000ms, 0533ms total)
T6388 001:271 JLINK_WriteReg(R6, 0x00000000)  returns 0x00 (0000ms, 0533ms total)
T6388 001:271 JLINK_WriteReg(R7, 0x00000000)  returns 0x00 (0000ms, 0533ms total)
T6388 001:271 JLINK_WriteReg(R8, 0x00000000)  returns 0x00 (0000ms, 0533ms total)
T6388 001:271 JLINK_WriteReg(R9, 0x200001E8)  returns 0x00 (0000ms, 0533ms total)
T6388 001:271 JLINK_WriteReg(R10, 0x00000000)  returns 0x00 (0000ms, 0533ms total)
T6388 001:271 JLINK_WriteReg(R11, 0x00000000)  returns 0x00 (0000ms, 0533ms total)
T6388 001:271 JLINK_WriteReg(R12, 0x00000000)  returns 0x00 (0000ms, 0533ms total)
T6388 001:271 JLINK_WriteReg(R13, 0x20002000)  returns 0x00 (0000ms, 0533ms total)
T6388 001:271 JLINK_WriteReg(R14, 0x20000001)  returns 0x00 (0000ms, 0533ms total)
T6388 001:271 JLINK_WriteReg(R15, 0x20000148)  returns 0x00 (0000ms, 0533ms total)
T6388 001:271 JLINK_WriteReg(XPSR, 0x01000000)  returns 0x00 (0000ms, 0533ms total)
T6388 001:271 JLINK_WriteReg(MSP, 0x20002000)  returns 0x00 (0000ms, 0533ms total)
T6388 001:271 JLINK_WriteReg(PSP, 0x20002000)  returns 0x00 (0000ms, 0533ms total)
T6388 001:271 JLINK_WriteReg(CFBP, 0x00000000)  returns 0x00 (0000ms, 0533ms total)
T6388 001:271 JLINK_SetBPEx(Addr = 0x20000000, Type = 0xFFFFFFF2)  returns 0x0000000E (0000ms, 0533ms total)
T6388 001:271 JLINK_Go() (0003ms, 0536ms total)
T6388 001:274 JLINK_IsHalted()  returns FALSE (0000ms, 0536ms total)
T6388 001:326 JLINK_IsHalted() -- CPU_ReadMem(2 bytes @ 0x20000000)  returns TRUE (0004ms, 0540ms total)
T6388 001:330 JLINK_ReadReg(R15)  returns 0x20000000 (0000ms, 0536ms total)
T6388 001:330 JLINK_ClrBPEx(BPHandle = 0x0000000E)  returns 0x00 (0000ms, 0536ms total)
T6388 001:330 JLINK_ReadReg(R0)  returns 0x00000000 (0000ms, 0536ms total)
T6388 001:330 JLINK_WriteMem(0x200001EC, 0x0214 Bytes, ...) -- Data:  08 60 12 E0 51 48 00 68 0C 30 50 49 08 60 0C E0 ... -- CPU_WriteMem(532 bytes @ 0x200001EC)  returns 0x214 (0006ms, 0542ms total)
T6388 001:336 JLINK_WriteMem(0x20000400, 0x01EC Bytes, ...) -- Data:  15 49 08 70 08 46 00 78 40 1E 14 49 08 70 00 E0 ... -- CPU_WriteMem(492 bytes @ 0x20000400)  returns 0x1EC (0004ms, 0546ms total)
T6388 001:340 JLINK_WriteReg(R0, 0x00002800)  returns 0x00 (0000ms, 0546ms total)
T6388 001:340 JLINK_WriteReg(R1, 0x00000400)  returns 0x00 (0000ms, 0546ms total)
T6388 001:340 JLINK_WriteReg(R2, 0x200001EC)  returns 0x00 (0000ms, 0546ms total)
T6388 001:340 JLINK_WriteReg(R3, 0x00000000)  returns 0x00 (0000ms, 0546ms total)
T6388 001:340 JLINK_WriteReg(R4, 0x00000000)  returns 0x00 (0000ms, 0546ms total)
T6388 001:340 JLINK_WriteReg(R5, 0x00000000)  returns 0x00 (0000ms, 0546ms total)
T6388 001:340 JLINK_WriteReg(R6, 0x00000000)  returns 0x00 (0000ms, 0546ms total)
T6388 001:340 JLINK_WriteReg(R7, 0x00000000)  returns 0x00 (0000ms, 0546ms total)
T6388 001:340 JLINK_WriteReg(R8, 0x00000000)  returns 0x00 (0000ms, 0546ms total)
T6388 001:340 JLINK_WriteReg(R9, 0x200001E8)  returns 0x00 (0000ms, 0546ms total)
T6388 001:340 JLINK_WriteReg(R10, 0x00000000)  returns 0x00 (0000ms, 0546ms total)
T6388 001:340 JLINK_WriteReg(R11, 0x00000000)  returns 0x00 (0000ms, 0546ms total)
T6388 001:340 JLINK_WriteReg(R12, 0x00000000)  returns 0x00 (0000ms, 0546ms total)
T6388 001:340 JLINK_WriteReg(R13, 0x20002000)  returns 0x00 (0000ms, 0546ms total)
T6388 001:340 JLINK_WriteReg(R14, 0x20000001)  returns 0x00 (0000ms, 0546ms total)
T6388 001:340 JLINK_WriteReg(R15, 0x20000148)  returns 0x00 (0000ms, 0546ms total)
T6388 001:340 JLINK_WriteReg(XPSR, 0x01000000)  returns 0x00 (0000ms, 0546ms total)
T6388 001:340 JLINK_WriteReg(MSP, 0x20002000)  returns 0x00 (0000ms, 0546ms total)
T6388 001:340 JLINK_WriteReg(PSP, 0x20002000)  returns 0x00 (0000ms, 0546ms total)
T6388 001:340 JLINK_WriteReg(CFBP, 0x00000000)  returns 0x00 (0000ms, 0546ms total)
T6388 001:340 JLINK_SetBPEx(Addr = 0x20000000, Type = 0xFFFFFFF2)  returns 0x0000000F (0000ms, 0546ms total)
T6388 001:340 JLINK_Go() (0001ms, 0547ms total)
T6388 001:341 JLINK_IsHalted()  returns FALSE (0001ms, 0548ms total)
T6388 001:393 JLINK_IsHalted() -- CPU_ReadMem(2 bytes @ 0x20000000)  returns TRUE (0004ms, 0551ms total)
T6388 001:397 JLINK_ReadReg(R15)  returns 0x20000000 (0000ms, 0547ms total)
T6388 001:397 JLINK_ClrBPEx(BPHandle = 0x0000000F)  returns 0x00 (0000ms, 0547ms total)
T6388 001:397 JLINK_ReadReg(R0)  returns 0x00000000 (0000ms, 0547ms total)
T6388 001:397 JLINK_WriteMem(0x200001EC, 0x0214 Bytes, ...) -- Data:  01 F0 B1 FF 02 E0 00 20 01 F0 AD FF FF F7 36 FF ... -- CPU_WriteMem(532 bytes @ 0x200001EC)  returns 0x214 (0005ms, 0552ms total)
T6388 001:402 JLINK_WriteMem(0x20000400, 0x01EC Bytes, ...) -- Data:  00 BF 00 E0 00 BF 00 BF 31 46 94 48 00 68 04 F0 ... -- CPU_WriteMem(492 bytes @ 0x20000400)  returns 0x1EC (0004ms, 0556ms total)
T6388 001:406 JLINK_WriteReg(R0, 0x00002C00)  returns 0x00 (0000ms, 0556ms total)
T6388 001:406 JLINK_WriteReg(R1, 0x00000400)  returns 0x00 (0000ms, 0556ms total)
T6388 001:406 JLINK_WriteReg(R2, 0x200001EC)  returns 0x00 (0000ms, 0556ms total)
T6388 001:406 JLINK_WriteReg(R3, 0x00000000)  returns 0x00 (0000ms, 0556ms total)
T6388 001:406 JLINK_WriteReg(R4, 0x00000000)  returns 0x00 (0000ms, 0556ms total)
T6388 001:406 JLINK_WriteReg(R5, 0x00000000)  returns 0x00 (0000ms, 0556ms total)
T6388 001:406 JLINK_WriteReg(R6, 0x00000000)  returns 0x00 (0000ms, 0556ms total)
T6388 001:406 JLINK_WriteReg(R7, 0x00000000)  returns 0x00 (0000ms, 0556ms total)
T6388 001:406 JLINK_WriteReg(R8, 0x00000000)  returns 0x00 (0000ms, 0556ms total)
T6388 001:406 JLINK_WriteReg(R9, 0x200001E8)  returns 0x00 (0000ms, 0556ms total)
T6388 001:406 JLINK_WriteReg(R10, 0x00000000)  returns 0x00 (0000ms, 0556ms total)
T6388 001:406 JLINK_WriteReg(R11, 0x00000000)  returns 0x00 (0000ms, 0556ms total)
T6388 001:406 JLINK_WriteReg(R12, 0x00000000)  returns 0x00 (0000ms, 0556ms total)
T6388 001:406 JLINK_WriteReg(R13, 0x20002000)  returns 0x00 (0000ms, 0556ms total)
T6388 001:406 JLINK_WriteReg(R14, 0x20000001)  returns 0x00 (0000ms, 0556ms total)
T6388 001:406 JLINK_WriteReg(R15, 0x20000148)  returns 0x00 (0000ms, 0556ms total)
T6388 001:406 JLINK_WriteReg(XPSR, 0x01000000)  returns 0x00 (0000ms, 0556ms total)
T6388 001:406 JLINK_WriteReg(MSP, 0x20002000)  returns 0x00 (0000ms, 0556ms total)
T6388 001:406 JLINK_WriteReg(PSP, 0x20002000)  returns 0x00 (0000ms, 0556ms total)
T6388 001:406 JLINK_WriteReg(CFBP, 0x00000000)  returns 0x00 (0000ms, 0556ms total)
T6388 001:406 JLINK_SetBPEx(Addr = 0x20000000, Type = 0xFFFFFFF2)  returns 0x00000010 (0000ms, 0556ms total)
T6388 001:406 JLINK_Go() (0002ms, 0558ms total)
T6388 001:408 JLINK_IsHalted()  returns FALSE (0002ms, 0560ms total)
T6388 001:460 JLINK_IsHalted() -- CPU_ReadMem(2 bytes @ 0x20000000)  returns TRUE (0004ms, 0562ms total)
T6388 001:464 JLINK_ReadReg(R15)  returns 0x20000000 (0000ms, 0558ms total)
T6388 001:464 JLINK_ClrBPEx(BPHandle = 0x00000010)  returns 0x00 (0000ms, 0558ms total)
T6388 001:464 JLINK_ReadReg(R0)  returns 0x00000000 (0000ms, 0558ms total)
T6388 001:464 JLINK_WriteMem(0x200001EC, 0x0214 Bytes, ...) -- Data:  52 1C 69 23 DB 00 9A 42 F9 D3 49 1C 81 42 F4 D3 ... -- CPU_WriteMem(532 bytes @ 0x200001EC)  returns 0x214 (0005ms, 0563ms total)
T6388 001:469 JLINK_WriteMem(0x20000400, 0x01EC Bytes, ...) -- Data:  40 08 C8 62 00 26 28 E0 01 23 30 22 15 49 23 20 ... -- CPU_WriteMem(492 bytes @ 0x20000400)  returns 0x1EC (0004ms, 0567ms total)
T6388 001:473 JLINK_WriteReg(R0, 0x00003000)  returns 0x00 (0000ms, 0567ms total)
T6388 001:473 JLINK_WriteReg(R1, 0x00000400)  returns 0x00 (0000ms, 0567ms total)
T6388 001:473 JLINK_WriteReg(R2, 0x200001EC)  returns 0x00 (0000ms, 0567ms total)
T6388 001:473 JLINK_WriteReg(R3, 0x00000000)  returns 0x00 (0000ms, 0567ms total)
T6388 001:473 JLINK_WriteReg(R4, 0x00000000)  returns 0x00 (0000ms, 0567ms total)
T6388 001:473 JLINK_WriteReg(R5, 0x00000000)  returns 0x00 (0000ms, 0567ms total)
T6388 001:473 JLINK_WriteReg(R6, 0x00000000)  returns 0x00 (0000ms, 0567ms total)
T6388 001:473 JLINK_WriteReg(R7, 0x00000000)  returns 0x00 (0000ms, 0567ms total)
T6388 001:473 JLINK_WriteReg(R8, 0x00000000)  returns 0x00 (0000ms, 0567ms total)
T6388 001:473 JLINK_WriteReg(R9, 0x200001E8)  returns 0x00 (0000ms, 0567ms total)
T6388 001:473 JLINK_WriteReg(R10, 0x00000000)  returns 0x00 (0000ms, 0567ms total)
T6388 001:473 JLINK_WriteReg(R11, 0x00000000)  returns 0x00 (0000ms, 0567ms total)
T6388 001:473 JLINK_WriteReg(R12, 0x00000000)  returns 0x00 (0000ms, 0567ms total)
T6388 001:473 JLINK_WriteReg(R13, 0x20002000)  returns 0x00 (0000ms, 0567ms total)
T6388 001:473 JLINK_WriteReg(R14, 0x20000001)  returns 0x00 (0000ms, 0567ms total)
T6388 001:473 JLINK_WriteReg(R15, 0x20000148)  returns 0x00 (0000ms, 0567ms total)
T6388 001:473 JLINK_WriteReg(XPSR, 0x01000000)  returns 0x00 (0000ms, 0567ms total)
T6388 001:473 JLINK_WriteReg(MSP, 0x20002000)  returns 0x00 (0000ms, 0567ms total)
T6388 001:473 JLINK_WriteReg(PSP, 0x20002000)  returns 0x00 (0001ms, 0568ms total)
T6388 001:474 JLINK_WriteReg(CFBP, 0x00000000)  returns 0x00 (0000ms, 0568ms total)
T6388 001:474 JLINK_SetBPEx(Addr = 0x20000000, Type = 0xFFFFFFF2)  returns 0x00000011 (0000ms, 0568ms total)
T6388 001:474 JLINK_Go() (0001ms, 0569ms total)
T6388 001:475 JLINK_IsHalted()  returns FALSE (0001ms, 0570ms total)
T6388 001:527 JLINK_IsHalted() -- CPU_ReadMem(2 bytes @ 0x20000000)  returns TRUE (0004ms, 0573ms total)
T6388 001:531 JLINK_ReadReg(R15)  returns 0x20000000 (0000ms, 0569ms total)
T6388 001:531 JLINK_ClrBPEx(BPHandle = 0x00000011)  returns 0x00 (0000ms, 0569ms total)
T6388 001:531 JLINK_ReadReg(R0)  returns 0x00000000 (0000ms, 0569ms total)
T6388 001:532 JLINK_WriteMem(0x200001EC, 0x0214 Bytes, ...) -- Data:  10 B5 B4 48 00 78 80 21 88 43 80 30 B1 49 08 70 ... -- CPU_WriteMem(532 bytes @ 0x200001EC)  returns 0x214 (0004ms, 0573ms total)
